
T0E0C 000:434 SEGGER J-Link V4.80g Log File (0002ms, 0271ms total)
T0E0C 000:434 DLL Compiled: Feb 13 2014 20:50:02 (0002ms, 0271ms total)
T0E0C 000:434 Logging started @ 2025-07-12 20:31 (0002ms, 0271ms total)
T0E0C 000:436 JLINK_SetWarnOutHandler(...) (0000ms, 0271ms total)
T0E0C 000:436 JLINK_OpenEx(...)
Firmware: J-Link V9 compiled Dec 19 2014 16:50:53
Hardware: V9.20
S/N: 29999997
Feature(s): GDB, RDI, FlashBP, FlashDL, JFlash  returns O.K. (0265ms, 0536ms total)
T0E0C 000:701 JLINK_SetErrorOutHandler(...) (0000ms, 0536ms total)
T0E0C 000:702 JLINK_ExecCommand("ProjectFile = "E:\MotorCtrlSys250703N02\test3\LED_BLINK_TEST\MDK-ARM\JLinkSettings.ini"", ...)Device "UNSPECIFIED" selected (0 KB flash, 0 KB RAM).  returns 0x00 (0004ms, 0540ms total)
T0E0C 000:707 JLINK_ExecCommand("Device = STM32F407VETx", ...)Device "UNSPECIFIED" selected (0 KB flash, 0 KB RAM).  returns 0x00 (0001ms, 0541ms total)
T0E0C 000:708 JLINK_ExecCommand("DisableConnectionTimeout", ...)  returns 0x01 (0000ms, 0541ms total)
T0E0C 000:708 JLINK_GetHardwareVersion()  returns 0x16760 (0000ms, 0541ms total)
T0E0C 000:708 JLINK_GetDLLVersion()  returns 48007 (0000ms, 0541ms total)
T0E0C 000:708 JLINK_GetFirmwareString(...) (0000ms, 0541ms total)
T0E0C 000:710 JLINK_GetDLLVersion()  returns 48007 (0000ms, 0541ms total)
T0E0C 000:710 JLINK_GetCompileDateTime() (0000ms, 0541ms total)
T0E0C 000:711 JLINK_GetFirmwareString(...) (0000ms, 0541ms total)
T0E0C 000:722 JLINK_GetHardwareVersion()  returns 0x16760 (0000ms, 0541ms total)
T0E0C 000:733 JLINK_TIF_Select(JLINKARM_TIF_SWD)  returns 0x00 (0001ms, 0542ms total)
T0E0C 000:734 JLINK_SetSpeed(2000) (0000ms, 0542ms total)
T0E0C 000:734 JLINK_GetId() >0x108 TIF>Found SWD-DP with ID 0x2BA01477 >0x0D TIF> >0x21 TIF> >0x0D TIF> >0x28 TIF> >0x0D TIF> >0x28 TIF> >0x0D TIF> >0x21 TIF> >0x0D TIF> >0x28 TIF> >0x0D TIF> >0x21 TIF> >0x0D TIF> >0x21 TIF> >0x0D TIF> >0x21 TIF> >0x0D TIF> >0x21 TIF> >0x0D TIF> >0x28 TIF> >0x0D TIF> >0x28 TIF> >0x0D TIF> >0x21 TIF> >0x0D TIF> >0x28 TIF> >0x0D TIF> >0x28 TIF> >0x0D TIF> >0x28 TIF> >0x0D TIF> >0x21 TIF> >0x0D TIF> >0x21 TIF> >0x0D TIF> >0x28 TIF> >0x0D TIF> >0x21 TIF> >0x0D TIF>
 >0x21 TIF>Found Cortex-M4 r0p1, Little endian. -- CPU_WriteMem(4 bytes @ 0xE0002000) -- CPU_ReadMem(4 bytes @ 0xE000EDF0) -- CPU_WriteMem(4 bytes @ 0xE000EDF0) -- CPU_ReadMem(4 bytes @ 0xE0002000)FPUnit: 6 code (BP) slots and 2 literal slots -- CPU_ReadMem(4 bytes @ 0xE000EDFC) -- CPU_WriteMem(4 bytes @ 0xE000EDFC) -- CPU_ReadMem(4 bytes @ 0xE0001000) -- CPU_WriteMem(4 bytes @ 0xE0001000) -- CPU_ReadMem(4 bytes @ 0xE00FF010)TPIU fitted. -- CPU_ReadMem(4 bytes @ 0xE00FF014)ETM fitted.
 -- CPU_ReadMem(4 bytes @ 0xE00FF018) >0x0D TIF> >0x21 TIF>  returns 0x2BA01477 (0017ms, 0559ms total)
T0E0C 000:751 JLINK_GetDeviceFamily()  returns 14 (0000ms, 0559ms total)
T0E0C 000:752 JLINK_ReadMem (0xE00FFFF0, 0x0010 Bytes, ...) -- CPU is running -- CPU_ReadMem(16 bytes @ 0xE00FFFF0) -- Data:  0D 00 00 00 10 00 00 00 05 00 00 00 B1 00 00 00  returns 0x00 (0001ms, 0560ms total)
T0E0C 000:753 JLINK_ReadMem (0xE00FFFD0, 0x0020 Bytes, ...) -- CPU is running -- CPU_ReadMem(32 bytes @ 0xE00FFFD0) -- Data:  00 00 00 00 00 00 00 00 00 00 00 00 00 00 00 00 ...  returns 0x00 (0001ms, 0561ms total)
T0E0C 000:754 JLINK_ReadMem (0xE00FF000, 0x0018 Bytes, ...) -- CPU is running -- CPU_ReadMem(24 bytes @ 0xE00FF000) -- Data:  03 F0 F0 FF 03 20 F0 FF 03 30 F0 FF 03 10 F0 FF ...  returns 0x00 (0000ms, 0561ms total)
T0E0C 000:754 JLINK_ReadMemU32(0xE000ED00, 0x0001 Items, ...) -- CPU is running -- CPU_ReadMem(4 bytes @ 0xE000ED00) -- Data:  41 C2 0F 41  returns 0x01 (0001ms, 0562ms total)
T0E0C 000:755 JLINK_ReadMemU32(0xE000EF40, 0x0001 Items, ...) -- CPU is running -- CPU_ReadMem(4 bytes @ 0xE000EF40) -- Data:  21 00 11 10  returns 0x01 (0000ms, 0562ms total)
T0E0C 000:755 JLINK_ReadMemU32(0xE000EF44, 0x0001 Items, ...) -- CPU is running -- CPU_ReadMem(4 bytes @ 0xE000EF44) -- Data:  11 00 00 11  returns 0x01 (0000ms, 0562ms total)
T0E0C 000:755 JLINK_SetResetType(JLINKARM_RESET_TYPE_NORMAL)  returns JLINKARM_RESET_TYPE_NORMAL (0000ms, 0562ms total)
T0E0C 000:755 JLINK_Reset() -- CPU is running -- CPU_WriteMem(4 bytes @ 0xE000EDF0) -- CPU is running -- CPU_WriteMem(4 bytes @ 0xE000EDFC) >0x35 TIF> -- CPU is running -- CPU_WriteMem(4 bytes @ 0xE000ED0C) -- CPU is running -- CPU_ReadMem(4 bytes @ 0xE000EDF0) -- CPU is running -- CPU_ReadMem(4 bytes @ 0xE000EDF0) -- CPU is running -- CPU_WriteMem(4 bytes @ 0xE000EDF0) -- CPU is running -- CPU_WriteMem(4 bytes @ 0xE000EDFC) -- CPU is running -- CPU_ReadMem(4 bytes @ 0xE000EDF0)
 -- CPU_WriteMem(4 bytes @ 0xE0002000) -- CPU_ReadMem(4 bytes @ 0xE000EDFC) -- CPU_ReadMem(4 bytes @ 0xE0001000) (0017ms, 0579ms total)
T0E0C 000:772 JLINK_Halt()  returns 0x00 (0000ms, 0579ms total)
T0E0C 000:772 JLINK_IsHalted()  returns TRUE (0000ms, 0579ms total)
T0E0C 000:772 JLINK_ReadMemU32(0xE000EDF0, 0x0001 Items, ...) -- CPU_ReadMem(4 bytes @ 0xE000EDF0) -- Data:  03 00 03 00  returns 0x01 (0001ms, 0580ms total)
T0E0C 000:773 JLINK_WriteU32(0xE000EDF0, 0xA05F0003) -- CPU_WriteMem(4 bytes @ 0xE000EDF0)  returns 0x00 (0000ms, 0580ms total)
T0E0C 000:773 JLINK_WriteU32(0xE000EDFC, 0x01000000) -- CPU_WriteMem(4 bytes @ 0xE000EDFC)  returns 0x00 (0001ms, 0581ms total)
T0E0C 000:777 JLINK_GetHWStatus(...)  returns 0x00 (0001ms, 0582ms total)
T0E0C 000:781 JLINK_GetNumBPUnits(Type = 0xFFFFFF00)  returns 0x06 (0000ms, 0582ms total)
T0E0C 000:781 JLINK_GetNumBPUnits(Type = 0xF0)  returns 0x2000 (0000ms, 0582ms total)
T0E0C 000:781 JLINK_GetNumWPUnits()  returns 0x04 (0000ms, 0582ms total)
T0E0C 000:784 JLINK_GetSpeed()  returns 0x7D0 (0000ms, 0582ms total)
T0E0C 000:789 JLINK_ReadMemU32(0xE000E004, 0x0001 Items, ...) -- CPU_ReadMem(4 bytes @ 0xE000E004) -- Data:  02 00 00 00  returns 0x01 (0001ms, 0583ms total)
T0E0C 000:790 JLINK_ReadMemU32(0xE000E004, 0x0001 Items, ...) -- CPU_ReadMem(4 bytes @ 0xE000E004) -- Data:  02 00 00 00  returns 0x01 (0000ms, 0583ms total)
T0E0C 000:790 JLINK_WriteMem(0xE0001000, 0x001C Bytes, ...) -- Data:  01 00 00 00 00 00 00 00 00 00 00 00 00 00 00 00 ... -- CPU_WriteMem(28 bytes @ 0xE0001000)  returns 0x1C (0001ms, 0584ms total)
T0E0C 000:791 JLINK_ReadMem (0xE0001000, 0x001C Bytes, ...) -- CPU_ReadMem(28 bytes @ 0xE0001000) -- Data:  01 00 00 40 00 00 00 00 00 00 00 00 00 00 00 00 ...  returns 0x00 (0001ms, 0585ms total)
T0E0C 000:792 JLINK_Halt()  returns 0x00 (0000ms, 0585ms total)
T0E0C 000:792 JLINK_IsHalted()  returns TRUE (0000ms, 0585ms total)
T0E0C 000:796 JLINK_WriteMem(0x20000000, 0x0184 Bytes, ...) -- Data:  00 BE 0A E0 0D 78 2D 06 68 40 08 24 40 00 00 D3 ... -- CPU_WriteMem(388 bytes @ 0x20000000)  returns 0x184 (0003ms, 0588ms total)
T0E0C 000:799 JLINK_WriteReg(R0, 0x08000000)  returns 0x00 (0000ms, 0588ms total)
T0E0C 000:799 JLINK_WriteReg(R1, 0x017D7840)  returns 0x00 (0000ms, 0588ms total)
T0E0C 000:799 JLINK_WriteReg(R2, 0x00000001)  returns 0x00 (0000ms, 0588ms total)
T0E0C 000:799 JLINK_WriteReg(R3, 0x00000000)  returns 0x00 (0000ms, 0588ms total)
T0E0C 000:799 JLINK_WriteReg(R4, 0x00000000)  returns 0x00 (0000ms, 0588ms total)
T0E0C 000:799 JLINK_WriteReg(R5, 0x00000000)  returns 0x00 (0000ms, 0588ms total)
T0E0C 000:799 JLINK_WriteReg(R6, 0x00000000)  returns 0x00 (0000ms, 0588ms total)
T0E0C 000:799 JLINK_WriteReg(R7, 0x00000000)  returns 0x00 (0000ms, 0588ms total)
T0E0C 000:799 JLINK_WriteReg(R8, 0x00000000)  returns 0x00 (0000ms, 0588ms total)
T0E0C 000:799 JLINK_WriteReg(R9, 0x20000180)  returns 0x00 (0000ms, 0588ms total)
T0E0C 000:799 JLINK_WriteReg(R10, 0x00000000)  returns 0x00 (0000ms, 0588ms total)
T0E0C 000:799 JLINK_WriteReg(R11, 0x00000000)  returns 0x00 (0000ms, 0588ms total)
T0E0C 000:799 JLINK_WriteReg(R12, 0x00000000)  returns 0x00 (0000ms, 0588ms total)
T0E0C 000:799 JLINK_WriteReg(R13 (SP), 0x20001000)  returns 0x00 (0000ms, 0588ms total)
T0E0C 000:799 JLINK_WriteReg(R14, 0x20000001)  returns 0x00 (0000ms, 0588ms total)
T0E0C 000:799 JLINK_WriteReg(R15 (PC), 0x20000054)  returns 0x00 (0000ms, 0588ms total)
T0E0C 000:799 JLINK_WriteReg(XPSR, 0x01000000)  returns 0x00 (0001ms, 0589ms total)
T0E0C 000:800 JLINK_WriteReg(MSP, 0x20001000)  returns 0x00 (0000ms, 0589ms total)
T0E0C 000:800 JLINK_WriteReg(PSP, 0x20001000)  returns 0x00 (0000ms, 0589ms total)
T0E0C 000:800 JLINK_WriteReg(CFBP, 0x00000000)  returns 0x00 (0000ms, 0589ms total)
T0E0C 000:800 JLINK_SetBPEx(Addr = 0x20000000, Type = 0xFFFFFFF2) -- CPU_ReadMem(4 bytes @ 0x20000000) -- CPU_WriteMem(4 bytes @ 0x20000000) -- CPU_ReadMem(4 bytes @ 0x20000000) -- CPU_WriteMem(4 bytes @ 0x20000000) -- CPU_ReadMem(2 bytes @ 0x20000000)  returns 0x00000001 (0001ms, 0590ms total)
T0E0C 000:801 JLINK_Go() -- CPU_WriteMem(2 bytes @ 0x20000000) -- CPU_WriteMem(4 bytes @ 0xE0002008) -- CPU_WriteMem(4 bytes @ 0xE000200C) -- CPU_WriteMem(4 bytes @ 0xE0002010) -- CPU_WriteMem(4 bytes @ 0xE0002014) -- CPU_WriteMem(4 bytes @ 0xE0002018) -- CPU_WriteMem(4 bytes @ 0xE000201C) -- CPU_WriteMem(4 bytes @ 0xE0001004) (0005ms, 0595ms total)
T0E0C 000:806 JLINK_IsHalted() -- CPU_ReadMem(2 bytes @ 0x20000000)  returns TRUE (0004ms, 0599ms total)
T0E0C 000:810 JLINK_ReadReg(R15 (PC))  returns 0x20000000 (0000ms, 0595ms total)
T0E0C 000:810 JLINK_ClrBPEx(BPHandle = 0x00000001)  returns 0x00 (0000ms, 0595ms total)
T0E0C 000:810 JLINK_ReadReg(R0)  returns 0x00000000 (0000ms, 0595ms total)
T0E0C 000:810 JLINK_WriteReg(R0, 0x08000000)  returns 0x00 (0000ms, 0595ms total)
T0E0C 000:810 JLINK_WriteReg(R1, 0x00004000)  returns 0x00 (0000ms, 0595ms total)
T0E0C 000:810 JLINK_WriteReg(R2, 0x000000FF)  returns 0x00 (0000ms, 0595ms total)
T0E0C 000:810 JLINK_WriteReg(R3, 0x00000000)  returns 0x00 (0000ms, 0595ms total)
T0E0C 000:810 JLINK_WriteReg(R4, 0x00000000)  returns 0x00 (0000ms, 0595ms total)
T0E0C 000:810 JLINK_WriteReg(R5, 0x00000000)  returns 0x00 (0000ms, 0595ms total)
T0E0C 000:810 JLINK_WriteReg(R6, 0x00000000)  returns 0x00 (0000ms, 0595ms total)
T0E0C 000:810 JLINK_WriteReg(R7, 0x00000000)  returns 0x00 (0000ms, 0595ms total)
T0E0C 000:810 JLINK_WriteReg(R8, 0x00000000)  returns 0x00 (0000ms, 0595ms total)
T0E0C 000:810 JLINK_WriteReg(R9, 0x20000180)  returns 0x00 (0000ms, 0595ms total)
T0E0C 000:810 JLINK_WriteReg(R10, 0x00000000)  returns 0x00 (0000ms, 0595ms total)
T0E0C 000:810 JLINK_WriteReg(R11, 0x00000000)  returns 0x00 (0000ms, 0595ms total)
T0E0C 000:810 JLINK_WriteReg(R12, 0x00000000)  returns 0x00 (0000ms, 0595ms total)
T0E0C 000:810 JLINK_WriteReg(R13 (SP), 0x20001000)  returns 0x00 (0000ms, 0595ms total)
T0E0C 000:810 JLINK_WriteReg(R14, 0x20000001)  returns 0x00 (0000ms, 0595ms total)
T0E0C 000:810 JLINK_WriteReg(R15 (PC), 0x20000020)  returns 0x00 (0000ms, 0595ms total)
T0E0C 000:810 JLINK_WriteReg(XPSR, 0x01000000)  returns 0x00 (0000ms, 0595ms total)
T0E0C 000:810 JLINK_WriteReg(MSP, 0x20001000)  returns 0x00 (0000ms, 0595ms total)
T0E0C 000:810 JLINK_WriteReg(PSP, 0x20001000)  returns 0x00 (0000ms, 0595ms total)
T0E0C 000:810 JLINK_WriteReg(CFBP, 0x00000000)  returns 0x00 (0000ms, 0595ms total)
T0E0C 000:810 JLINK_SetBPEx(Addr = 0x20000000, Type = 0xFFFFFFF2)  returns 0x00000002 (0000ms, 0595ms total)
T0E0C 000:810 JLINK_Go() (0002ms, 0597ms total)
T0E0C 000:812 JLINK_IsHalted() -- CPU_ReadMem(2 bytes @ 0x20000000)  returns TRUE (0003ms, 0600ms total)
T0E0C 000:815 JLINK_ReadReg(R15 (PC))  returns 0x20000000 (0000ms, 0597ms total)
T0E0C 000:815 JLINK_ClrBPEx(BPHandle = 0x00000002)  returns 0x00 (0000ms, 0597ms total)
T0E0C 000:815 JLINK_ReadReg(R0)  returns 0x00000001 (0000ms, 0597ms total)
T0E0C 000:815 JLINK_WriteReg(R0, 0x08000000)  returns 0x00 (0000ms, 0597ms total)
T0E0C 000:815 JLINK_WriteReg(R1, 0x00004000)  returns 0x00 (0000ms, 0597ms total)
T0E0C 000:815 JLINK_WriteReg(R2, 0x000000FF)  returns 0x00 (0000ms, 0597ms total)
T0E0C 000:815 JLINK_WriteReg(R3, 0x00000000)  returns 0x00 (0000ms, 0597ms total)
T0E0C 000:815 JLINK_WriteReg(R4, 0x00000000)  returns 0x00 (0000ms, 0597ms total)
T0E0C 000:815 JLINK_WriteReg(R5, 0x00000000)  returns 0x00 (0000ms, 0597ms total)
T0E0C 000:815 JLINK_WriteReg(R6, 0x00000000)  returns 0x00 (0000ms, 0597ms total)
T0E0C 000:815 JLINK_WriteReg(R7, 0x00000000)  returns 0x00 (0000ms, 0597ms total)
T0E0C 000:815 JLINK_WriteReg(R8, 0x00000000)  returns 0x00 (0000ms, 0597ms total)
T0E0C 000:815 JLINK_WriteReg(R9, 0x20000180)  returns 0x00 (0000ms, 0597ms total)
T0E0C 000:815 JLINK_WriteReg(R10, 0x00000000)  returns 0x00 (0000ms, 0597ms total)
T0E0C 000:815 JLINK_WriteReg(R11, 0x00000000)  returns 0x00 (0000ms, 0597ms total)
T0E0C 000:815 JLINK_WriteReg(R12, 0x00000000)  returns 0x00 (0000ms, 0597ms total)
T0E0C 000:815 JLINK_WriteReg(R13 (SP), 0x20001000)  returns 0x00 (0000ms, 0597ms total)
T0E0C 000:815 JLINK_WriteReg(R14, 0x20000001)  returns 0x00 (0000ms, 0597ms total)
T0E0C 000:815 JLINK_WriteReg(R15 (PC), 0x200000C0)  returns 0x00 (0000ms, 0597ms total)
T0E0C 000:815 JLINK_WriteReg(XPSR, 0x01000000)  returns 0x00 (0000ms, 0597ms total)
T0E0C 000:815 JLINK_WriteReg(MSP, 0x20001000)  returns 0x00 (0000ms, 0597ms total)
T0E0C 000:815 JLINK_WriteReg(PSP, 0x20001000)  returns 0x00 (0000ms, 0597ms total)
T0E0C 000:815 JLINK_WriteReg(CFBP, 0x00000000)  returns 0x00 (0000ms, 0597ms total)
T0E0C 000:815 JLINK_SetBPEx(Addr = 0x20000000, Type = 0xFFFFFFF2)  returns 0x00000003 (0000ms, 0597ms total)
T0E0C 000:815 JLINK_Go() (0001ms, 0598ms total)
T0E0C 000:816 JLINK_IsHalted()  returns FALSE (0000ms, 0598ms total)
T0E0C 000:865 JLINK_IsHalted()  returns FALSE (0000ms, 0598ms total)
T0E0C 000:866 JLINK_IsHalted()  returns FALSE (0000ms, 0598ms total)
T0E0C 000:868 JLINK_IsHalted()  returns FALSE (0000ms, 0598ms total)
T0E0C 000:870 JLINK_IsHalted()  returns FALSE (0001ms, 0599ms total)
T0E0C 000:873 JLINK_IsHalted()  returns FALSE (0000ms, 0598ms total)
T0E0C 000:875 JLINK_IsHalted()  returns FALSE (0000ms, 0598ms total)
T0E0C 000:877 JLINK_IsHalted()  returns FALSE (0001ms, 0599ms total)
T0E0C 000:879 JLINK_IsHalted()  returns FALSE (0000ms, 0598ms total)
T0E0C 000:881 JLINK_IsHalted()  returns FALSE (0000ms, 0598ms total)
T0E0C 000:883 JLINK_IsHalted()  returns FALSE (0000ms, 0598ms total)
T0E0C 000:885 JLINK_IsHalted()  returns FALSE (0000ms, 0598ms total)
T0E0C 000:888 JLINK_IsHalted()  returns FALSE (0000ms, 0598ms total)
T0E0C 000:890 JLINK_IsHalted()  returns FALSE (0000ms, 0598ms total)
T0E0C 000:892 JLINK_IsHalted()  returns FALSE (0000ms, 0598ms total)
T0E0C 000:894 JLINK_IsHalted()  returns FALSE (0000ms, 0598ms total)
T0E0C 000:896 JLINK_IsHalted()  returns FALSE (0000ms, 0598ms total)
T0E0C 000:899 JLINK_IsHalted()  returns FALSE (0000ms, 0598ms total)
T0E0C 000:901 JLINK_IsHalted()  returns FALSE (0000ms, 0598ms total)
T0E0C 000:903 JLINK_IsHalted()  returns FALSE (0000ms, 0598ms total)
T0E0C 000:905 JLINK_IsHalted()  returns FALSE (0000ms, 0598ms total)
T0E0C 000:909 JLINK_IsHalted()  returns FALSE (0000ms, 0598ms total)
T0E0C 000:912 JLINK_IsHalted()  returns FALSE (0000ms, 0598ms total)
T0E0C 000:914 JLINK_IsHalted()  returns FALSE (0000ms, 0598ms total)
T0E0C 000:916 JLINK_IsHalted()  returns FALSE (0000ms, 0598ms total)
T0E0C 000:918 JLINK_IsHalted()  returns FALSE (0000ms, 0598ms total)
T0E0C 000:920 JLINK_IsHalted()  returns FALSE (0000ms, 0598ms total)
T0E0C 000:922 JLINK_IsHalted()  returns FALSE (0001ms, 0599ms total)
T0E0C 000:925 JLINK_IsHalted()  returns FALSE (0000ms, 0598ms total)
T0E0C 000:927 JLINK_IsHalted()  returns FALSE (0000ms, 0598ms total)
T0E0C 000:929 JLINK_IsHalted()  returns FALSE (0000ms, 0598ms total)
T0E0C 000:931 JLINK_IsHalted()  returns FALSE (0000ms, 0598ms total)
T0E0C 000:933 JLINK_IsHalted()  returns FALSE (0000ms, 0598ms total)
T0E0C 000:935 JLINK_IsHalted()  returns FALSE (0000ms, 0598ms total)
T0E0C 000:939 JLINK_IsHalted()  returns FALSE (0000ms, 0598ms total)
T0E0C 000:941 JLINK_IsHalted()  returns FALSE (0000ms, 0598ms total)
T0E0C 000:944 JLINK_IsHalted()  returns FALSE (0000ms, 0598ms total)
T0E0C 000:947 JLINK_IsHalted()  returns FALSE (0000ms, 0598ms total)
T0E0C 000:949 JLINK_IsHalted()  returns FALSE (0000ms, 0598ms total)
T0E0C 000:950 JLINK_IsHalted()  returns FALSE (0000ms, 0598ms total)
T0E0C 000:953 JLINK_IsHalted()  returns FALSE (0000ms, 0598ms total)
T0E0C 000:954 JLINK_IsHalted()  returns FALSE (0000ms, 0598ms total)
T0E0C 000:957 JLINK_IsHalted()  returns FALSE (0000ms, 0598ms total)
T0E0C 000:958 JLINK_IsHalted()  returns FALSE (0000ms, 0598ms total)
T0E0C 000:960 JLINK_IsHalted()  returns FALSE (0000ms, 0598ms total)
T0E0C 000:963 JLINK_IsHalted()  returns FALSE (0000ms, 0598ms total)
T0E0C 000:965 JLINK_IsHalted()  returns FALSE (0000ms, 0598ms total)
T0E0C 000:966 JLINK_IsHalted()  returns FALSE (0000ms, 0598ms total)
T0E0C 000:970 JLINK_IsHalted()  returns FALSE (0000ms, 0598ms total)
T0E0C 000:972 JLINK_IsHalted()  returns FALSE (0000ms, 0598ms total)
T0E0C 000:974 JLINK_IsHalted()  returns FALSE (0000ms, 0598ms total)
T0E0C 000:977 JLINK_IsHalted()  returns FALSE (0001ms, 0599ms total)
T0E0C 000:979 JLINK_IsHalted()  returns FALSE (0000ms, 0598ms total)
T0E0C 000:981 JLINK_IsHalted()  returns FALSE (0000ms, 0598ms total)
T0E0C 000:983 JLINK_IsHalted()  returns FALSE (0000ms, 0598ms total)
T0E0C 000:985 JLINK_IsHalted()  returns FALSE (0000ms, 0598ms total)
T0E0C 000:987 JLINK_IsHalted()  returns FALSE (0000ms, 0598ms total)
T0E0C 000:990 JLINK_IsHalted()  returns FALSE (0000ms, 0598ms total)
T0E0C 000:991 JLINK_IsHalted()  returns FALSE (0000ms, 0598ms total)
T0E0C 000:993 JLINK_IsHalted()  returns FALSE (0000ms, 0598ms total)
T0E0C 000:996 JLINK_IsHalted()  returns FALSE (0000ms, 0598ms total)
T0E0C 000:998 JLINK_IsHalted()  returns FALSE (0000ms, 0598ms total)
T0E0C 001:000 JLINK_IsHalted()  returns FALSE (0000ms, 0598ms total)
T0E0C 001:003 JLINK_IsHalted()  returns FALSE (0000ms, 0598ms total)
T0E0C 001:006 JLINK_IsHalted()  returns FALSE (0000ms, 0598ms total)
T0E0C 001:008 JLINK_IsHalted()  returns FALSE (0000ms, 0598ms total)
T0E0C 001:011 JLINK_IsHalted()  returns FALSE (0000ms, 0598ms total)
T0E0C 001:013 JLINK_IsHalted()  returns FALSE (0001ms, 0599ms total)
T0E0C 001:016 JLINK_IsHalted()  returns FALSE (0000ms, 0598ms total)
T0E0C 001:018 JLINK_IsHalted()  returns FALSE (0000ms, 0598ms total)
T0E0C 001:021 JLINK_IsHalted()  returns FALSE (0000ms, 0598ms total)
T0E0C 001:022 JLINK_IsHalted()  returns FALSE (0000ms, 0598ms total)
T0E0C 001:025 JLINK_IsHalted()  returns FALSE (0000ms, 0598ms total)
T0E0C 001:027 JLINK_IsHalted()  returns FALSE (0000ms, 0598ms total)
T0E0C 001:029 JLINK_IsHalted()  returns FALSE (0000ms, 0598ms total)
T0E0C 001:031 JLINK_IsHalted()  returns FALSE (0000ms, 0598ms total)
T0E0C 001:033 JLINK_IsHalted()  returns FALSE (0000ms, 0598ms total)
T0E0C 001:036 JLINK_IsHalted()  returns FALSE (0000ms, 0598ms total)
T0E0C 001:038 JLINK_IsHalted()  returns FALSE (0000ms, 0598ms total)
T0E0C 001:040 JLINK_IsHalted()  returns FALSE (0000ms, 0598ms total)
T0E0C 001:042 JLINK_IsHalted()  returns FALSE (0000ms, 0598ms total)
T0E0C 001:044 JLINK_IsHalted()  returns FALSE (0000ms, 0598ms total)
T0E0C 001:047 JLINK_IsHalted()  returns FALSE (0000ms, 0598ms total)
T0E0C 001:049 JLINK_IsHalted()  returns FALSE (0000ms, 0598ms total)
T0E0C 001:051 JLINK_IsHalted()  returns FALSE (0000ms, 0598ms total)
T0E0C 001:053 JLINK_IsHalted()  returns FALSE (0000ms, 0598ms total)
T0E0C 001:056 JLINK_IsHalted()  returns FALSE (0000ms, 0598ms total)
T0E0C 001:058 JLINK_IsHalted()  returns FALSE (0000ms, 0598ms total)
T0E0C 001:060 JLINK_IsHalted()  returns FALSE (0000ms, 0598ms total)
T0E0C 001:062 JLINK_IsHalted()  returns FALSE (0001ms, 0599ms total)
T0E0C 001:065 JLINK_IsHalted()  returns FALSE (0000ms, 0598ms total)
T0E0C 001:067 JLINK_IsHalted()  returns FALSE (0000ms, 0598ms total)
T0E0C 001:070 JLINK_IsHalted()  returns FALSE (0000ms, 0598ms total)
T0E0C 001:072 JLINK_IsHalted()  returns FALSE (0000ms, 0598ms total)
T0E0C 001:074 JLINK_IsHalted()  returns FALSE (0000ms, 0598ms total)
T0E0C 001:076 JLINK_IsHalted()  returns FALSE (0000ms, 0598ms total)
T0E0C 001:079 JLINK_IsHalted()  returns FALSE (0000ms, 0598ms total)
T0E0C 001:081 JLINK_IsHalted()  returns FALSE (0000ms, 0598ms total)
T0E0C 001:084 JLINK_IsHalted()  returns FALSE (0000ms, 0598ms total)
T0E0C 001:086 JLINK_IsHalted()  returns FALSE (0000ms, 0598ms total)
T0E0C 001:088 JLINK_IsHalted()  returns FALSE (0000ms, 0598ms total)
T0E0C 001:091 JLINK_IsHalted()  returns FALSE (0000ms, 0598ms total)
T0E0C 001:093 JLINK_IsHalted()  returns FALSE (0000ms, 0598ms total)
T0E0C 001:096 JLINK_IsHalted()  returns FALSE (0000ms, 0598ms total)
T0E0C 001:098 JLINK_IsHalted()  returns FALSE (0000ms, 0598ms total)
T0E0C 001:100 JLINK_IsHalted()  returns FALSE (0000ms, 0598ms total)
T0E0C 001:102 JLINK_IsHalted()  returns FALSE (0000ms, 0598ms total)
T0E0C 001:104 JLINK_IsHalted()  returns FALSE (0000ms, 0598ms total)
T0E0C 001:106 JLINK_IsHalted()  returns FALSE (0000ms, 0598ms total)
T0E0C 001:109 JLINK_IsHalted()  returns FALSE (0000ms, 0598ms total)
T0E0C 001:111 JLINK_IsHalted()  returns FALSE (0000ms, 0598ms total)
T0E0C 001:113 JLINK_IsHalted()  returns FALSE (0000ms, 0598ms total)
T0E0C 001:115 JLINK_IsHalted()  returns FALSE (0000ms, 0598ms total)
T0E0C 001:117 JLINK_IsHalted()  returns FALSE (0000ms, 0598ms total)
T0E0C 001:119 JLINK_IsHalted()  returns FALSE (0000ms, 0598ms total)
T0E0C 001:121 JLINK_IsHalted()  returns FALSE (0000ms, 0598ms total)
T0E0C 001:123 JLINK_IsHalted()  returns FALSE (0000ms, 0598ms total)
T0E0C 001:125 JLINK_IsHalted()  returns FALSE (0000ms, 0598ms total)
T0E0C 001:127 JLINK_IsHalted()  returns FALSE (0000ms, 0598ms total)
T0E0C 001:129 JLINK_IsHalted()  returns FALSE (0000ms, 0598ms total)
T0E0C 001:132 JLINK_IsHalted()  returns FALSE (0000ms, 0598ms total)
T0E0C 001:133 JLINK_IsHalted()  returns FALSE (0000ms, 0598ms total)
T0E0C 001:136 JLINK_IsHalted()  returns FALSE (0000ms, 0598ms total)
T0E0C 001:138 JLINK_IsHalted()  returns FALSE (0000ms, 0598ms total)
T0E0C 001:140 JLINK_IsHalted()  returns FALSE (0000ms, 0598ms total)
T0E0C 001:142 JLINK_IsHalted() -- CPU_ReadMem(2 bytes @ 0x20000000)  returns TRUE (0003ms, 0601ms total)
T0E0C 001:145 JLINK_ReadReg(R15 (PC))  returns 0x20000000 (0000ms, 0598ms total)
T0E0C 001:145 JLINK_ClrBPEx(BPHandle = 0x00000003)  returns 0x00 (0000ms, 0598ms total)
T0E0C 001:145 JLINK_ReadReg(R0)  returns 0x00000000 (0000ms, 0598ms total)
T0E0C 001:146 JLINK_WriteReg(R0, 0x00000001)  returns 0x00 (0000ms, 0598ms total)
T0E0C 001:146 JLINK_WriteReg(R1, 0x00004000)  returns 0x00 (0000ms, 0598ms total)
T0E0C 001:146 JLINK_WriteReg(R2, 0x000000FF)  returns 0x00 (0000ms, 0598ms total)
T0E0C 001:146 JLINK_WriteReg(R3, 0x00000000)  returns 0x00 (0000ms, 0598ms total)
T0E0C 001:146 JLINK_WriteReg(R4, 0x00000000)  returns 0x00 (0000ms, 0598ms total)
T0E0C 001:146 JLINK_WriteReg(R5, 0x00000000)  returns 0x00 (0000ms, 0598ms total)
T0E0C 001:146 JLINK_WriteReg(R6, 0x00000000)  returns 0x00 (0000ms, 0598ms total)
T0E0C 001:146 JLINK_WriteReg(R7, 0x00000000)  returns 0x00 (0000ms, 0598ms total)
T0E0C 001:146 JLINK_WriteReg(R8, 0x00000000)  returns 0x00 (0000ms, 0598ms total)
T0E0C 001:146 JLINK_WriteReg(R9, 0x20000180)  returns 0x00 (0000ms, 0598ms total)
T0E0C 001:146 JLINK_WriteReg(R10, 0x00000000)  returns 0x00 (0000ms, 0598ms total)
T0E0C 001:146 JLINK_WriteReg(R11, 0x00000000)  returns 0x00 (0000ms, 0598ms total)
T0E0C 001:146 JLINK_WriteReg(R12, 0x00000000)  returns 0x00 (0000ms, 0598ms total)
T0E0C 001:146 JLINK_WriteReg(R13 (SP), 0x20001000)  returns 0x00 (0000ms, 0598ms total)
T0E0C 001:146 JLINK_WriteReg(R14, 0x20000001)  returns 0x00 (0000ms, 0598ms total)
T0E0C 001:146 JLINK_WriteReg(R15 (PC), 0x20000086)  returns 0x00 (0000ms, 0598ms total)
T0E0C 001:146 JLINK_WriteReg(XPSR, 0x01000000)  returns 0x00 (0000ms, 0598ms total)
T0E0C 001:146 JLINK_WriteReg(MSP, 0x20001000)  returns 0x00 (0000ms, 0598ms total)
T0E0C 001:146 JLINK_WriteReg(PSP, 0x20001000)  returns 0x00 (0000ms, 0598ms total)
T0E0C 001:146 JLINK_WriteReg(CFBP, 0x00000000)  returns 0x00 (0000ms, 0598ms total)
T0E0C 001:146 JLINK_SetBPEx(Addr = 0x20000000, Type = 0xFFFFFFF2)  returns 0x00000004 (0000ms, 0598ms total)
T0E0C 001:146 JLINK_Go() (0002ms, 0600ms total)
T0E0C 001:148 JLINK_IsHalted() -- CPU_ReadMem(2 bytes @ 0x20000000)  returns TRUE (0003ms, 0603ms total)
T0E0C 001:151 JLINK_ReadReg(R15 (PC))  returns 0x20000000 (0000ms, 0600ms total)
T0E0C 001:151 JLINK_ClrBPEx(BPHandle = 0x00000004)  returns 0x00 (0000ms, 0600ms total)
T0E0C 001:151 JLINK_ReadReg(R0)  returns 0x00000000 (0000ms, 0600ms total)
T0E0C 001:222 JLINK_WriteMem(0x20000000, 0x0184 Bytes, ...) -- Data:  00 BE 0A E0 0D 78 2D 06 68 40 08 24 40 00 00 D3 ... -- CPU_WriteMem(388 bytes @ 0x20000000)  returns 0x184 (0004ms, 0604ms total)
T0E0C 001:226 JLINK_WriteReg(R0, 0x08000000)  returns 0x00 (0000ms, 0604ms total)
T0E0C 001:226 JLINK_WriteReg(R1, 0x017D7840)  returns 0x00 (0000ms, 0604ms total)
T0E0C 001:226 JLINK_WriteReg(R2, 0x00000002)  returns 0x00 (0000ms, 0604ms total)
T0E0C 001:226 JLINK_WriteReg(R3, 0x00000000)  returns 0x00 (0000ms, 0604ms total)
T0E0C 001:226 JLINK_WriteReg(R4, 0x00000000)  returns 0x00 (0000ms, 0604ms total)
T0E0C 001:226 JLINK_WriteReg(R5, 0x00000000)  returns 0x00 (0000ms, 0604ms total)
T0E0C 001:226 JLINK_WriteReg(R6, 0x00000000)  returns 0x00 (0000ms, 0604ms total)
T0E0C 001:226 JLINK_WriteReg(R7, 0x00000000)  returns 0x00 (0000ms, 0604ms total)
T0E0C 001:226 JLINK_WriteReg(R8, 0x00000000)  returns 0x00 (0000ms, 0604ms total)
T0E0C 001:226 JLINK_WriteReg(R9, 0x20000180)  returns 0x00 (0000ms, 0604ms total)
T0E0C 001:226 JLINK_WriteReg(R10, 0x00000000)  returns 0x00 (0000ms, 0604ms total)
T0E0C 001:226 JLINK_WriteReg(R11, 0x00000000)  returns 0x00 (0000ms, 0604ms total)
T0E0C 001:226 JLINK_WriteReg(R12, 0x00000000)  returns 0x00 (0000ms, 0604ms total)
T0E0C 001:226 JLINK_WriteReg(R13 (SP), 0x20001000)  returns 0x00 (0000ms, 0604ms total)
T0E0C 001:226 JLINK_WriteReg(R14, 0x20000001)  returns 0x00 (0000ms, 0604ms total)
T0E0C 001:226 JLINK_WriteReg(R15 (PC), 0x20000054)  returns 0x00 (0000ms, 0604ms total)
T0E0C 001:226 JLINK_WriteReg(XPSR, 0x01000000)  returns 0x00 (0000ms, 0604ms total)
T0E0C 001:226 JLINK_WriteReg(MSP, 0x20001000)  returns 0x00 (0000ms, 0604ms total)
T0E0C 001:226 JLINK_WriteReg(PSP, 0x20001000)  returns 0x00 (0000ms, 0604ms total)
T0E0C 001:226 JLINK_WriteReg(CFBP, 0x00000000)  returns 0x00 (0000ms, 0604ms total)
T0E0C 001:226 JLINK_SetBPEx(Addr = 0x20000000, Type = 0xFFFFFFF2) -- CPU_ReadMem(4 bytes @ 0x20000000) -- CPU_WriteMem(4 bytes @ 0x20000000) -- CPU_ReadMem(4 bytes @ 0x20000000) -- CPU_WriteMem(4 bytes @ 0x20000000) -- CPU_ReadMem(2 bytes @ 0x20000000)  returns 0x00000005 (0003ms, 0607ms total)
T0E0C 001:229 JLINK_Go() -- CPU_WriteMem(2 bytes @ 0x20000000) (0001ms, 0608ms total)
T0E0C 001:230 JLINK_IsHalted() -- CPU_ReadMem(2 bytes @ 0x20000000)  returns TRUE (0003ms, 0611ms total)
T0E0C 001:233 JLINK_ReadReg(R15 (PC))  returns 0x20000000 (0001ms, 0609ms total)
T0E0C 001:234 JLINK_ClrBPEx(BPHandle = 0x00000005)  returns 0x00 (0000ms, 0609ms total)
T0E0C 001:234 JLINK_ReadReg(R0)  returns 0x00000000 (0000ms, 0609ms total)
T0E0C 001:234 JLINK_WriteMem(0x20000184, 0x0400 Bytes, ...) -- Data:  B8 06 00 20 29 02 00 08 67 10 00 08 C9 0F 00 08 ... -- CPU_WriteMem(1024 bytes @ 0x20000184)  returns 0x400 (0008ms, 0617ms total)
T0E0C 001:242 JLINK_WriteReg(R0, 0x08000000)  returns 0x00 (0001ms, 0618ms total)
T0E0C 001:243 JLINK_WriteReg(R1, 0x00000400)  returns 0x00 (0000ms, 0618ms total)
T0E0C 001:243 JLINK_WriteReg(R2, 0x20000184)  returns 0x00 (0000ms, 0618ms total)
T0E0C 001:243 JLINK_WriteReg(R3, 0x00000000)  returns 0x00 (0000ms, 0618ms total)
T0E0C 001:243 JLINK_WriteReg(R4, 0x00000000)  returns 0x00 (0000ms, 0618ms total)
T0E0C 001:243 JLINK_WriteReg(R5, 0x00000000)  returns 0x00 (0000ms, 0618ms total)
T0E0C 001:243 JLINK_WriteReg(R6, 0x00000000)  returns 0x00 (0000ms, 0618ms total)
T0E0C 001:243 JLINK_WriteReg(R7, 0x00000000)  returns 0x00 (0000ms, 0618ms total)
T0E0C 001:243 JLINK_WriteReg(R8, 0x00000000)  returns 0x00 (0000ms, 0618ms total)
T0E0C 001:243 JLINK_WriteReg(R9, 0x20000180)  returns 0x00 (0000ms, 0618ms total)
T0E0C 001:243 JLINK_WriteReg(R10, 0x00000000)  returns 0x00 (0000ms, 0618ms total)
T0E0C 001:243 JLINK_WriteReg(R11, 0x00000000)  returns 0x00 (0000ms, 0618ms total)
T0E0C 001:243 JLINK_WriteReg(R12, 0x00000000)  returns 0x00 (0000ms, 0618ms total)
T0E0C 001:243 JLINK_WriteReg(R13 (SP), 0x20001000)  returns 0x00 (0000ms, 0618ms total)
T0E0C 001:243 JLINK_WriteReg(R14, 0x20000001)  returns 0x00 (0000ms, 0618ms total)
T0E0C 001:243 JLINK_WriteReg(R15 (PC), 0x2000010C)  returns 0x00 (0000ms, 0618ms total)
T0E0C 001:243 JLINK_WriteReg(XPSR, 0x01000000)  returns 0x00 (0000ms, 0618ms total)
T0E0C 001:243 JLINK_WriteReg(MSP, 0x20001000)  returns 0x00 (0000ms, 0618ms total)
T0E0C 001:243 JLINK_WriteReg(PSP, 0x20001000)  returns 0x00 (0000ms, 0618ms total)
T0E0C 001:243 JLINK_WriteReg(CFBP, 0x00000000)  returns 0x00 (0000ms, 0618ms total)
T0E0C 001:243 JLINK_SetBPEx(Addr = 0x20000000, Type = 0xFFFFFFF2)  returns 0x00000006 (0000ms, 0618ms total)
T0E0C 001:243 JLINK_Go() (0001ms, 0619ms total)
T0E0C 001:244 JLINK_IsHalted()  returns FALSE (0001ms, 0620ms total)
T0E0C 001:249 JLINK_IsHalted()  returns FALSE (0000ms, 0619ms total)
T0E0C 001:251 JLINK_IsHalted() -- CPU_ReadMem(2 bytes @ 0x20000000)  returns TRUE (0003ms, 0622ms total)
T0E0C 001:254 JLINK_ReadReg(R15 (PC))  returns 0x20000000 (0000ms, 0619ms total)
T0E0C 001:254 JLINK_ClrBPEx(BPHandle = 0x00000006)  returns 0x00 (0000ms, 0619ms total)
T0E0C 001:254 JLINK_ReadReg(R0)  returns 0x00000000 (0000ms, 0619ms total)
T0E0C 001:254 JLINK_WriteMem(0x20000184, 0x0400 Bytes, ...) -- Data:  D2 07 28 BF 31 F8 02 3B 48 BF 11 F8 01 2B 28 BF ... -- CPU_WriteMem(1024 bytes @ 0x20000184)  returns 0x400 (0008ms, 0627ms total)
T0E0C 001:262 JLINK_WriteReg(R0, 0x08000400)  returns 0x00 (0000ms, 0627ms total)
T0E0C 001:262 JLINK_WriteReg(R1, 0x00000400)  returns 0x00 (0000ms, 0627ms total)
T0E0C 001:262 JLINK_WriteReg(R2, 0x20000184)  returns 0x00 (0000ms, 0627ms total)
T0E0C 001:262 JLINK_WriteReg(R3, 0x00000000)  returns 0x00 (0000ms, 0627ms total)
T0E0C 001:262 JLINK_WriteReg(R4, 0x00000000)  returns 0x00 (0000ms, 0627ms total)
T0E0C 001:262 JLINK_WriteReg(R5, 0x00000000)  returns 0x00 (0000ms, 0627ms total)
T0E0C 001:262 JLINK_WriteReg(R6, 0x00000000)  returns 0x00 (0000ms, 0627ms total)
T0E0C 001:262 JLINK_WriteReg(R7, 0x00000000)  returns 0x00 (0000ms, 0627ms total)
T0E0C 001:262 JLINK_WriteReg(R8, 0x00000000)  returns 0x00 (0001ms, 0628ms total)
T0E0C 001:263 JLINK_WriteReg(R9, 0x20000180)  returns 0x00 (0000ms, 0628ms total)
T0E0C 001:263 JLINK_WriteReg(R10, 0x00000000)  returns 0x00 (0000ms, 0628ms total)
T0E0C 001:263 JLINK_WriteReg(R11, 0x00000000)  returns 0x00 (0000ms, 0628ms total)
T0E0C 001:263 JLINK_WriteReg(R12, 0x00000000)  returns 0x00 (0000ms, 0628ms total)
T0E0C 001:263 JLINK_WriteReg(R13 (SP), 0x20001000)  returns 0x00 (0000ms, 0628ms total)
T0E0C 001:263 JLINK_WriteReg(R14, 0x20000001)  returns 0x00 (0000ms, 0628ms total)
T0E0C 001:263 JLINK_WriteReg(R15 (PC), 0x2000010C)  returns 0x00 (0000ms, 0628ms total)
T0E0C 001:263 JLINK_WriteReg(XPSR, 0x01000000)  returns 0x00 (0000ms, 0628ms total)
T0E0C 001:263 JLINK_WriteReg(MSP, 0x20001000)  returns 0x00 (0000ms, 0628ms total)
T0E0C 001:263 JLINK_WriteReg(PSP, 0x20001000)  returns 0x00 (0000ms, 0628ms total)
T0E0C 001:263 JLINK_WriteReg(CFBP, 0x00000000)  returns 0x00 (0000ms, 0628ms total)
T0E0C 001:263 JLINK_SetBPEx(Addr = 0x20000000, Type = 0xFFFFFFF2)  returns 0x00000007 (0000ms, 0628ms total)
T0E0C 001:263 JLINK_Go() (0001ms, 0629ms total)
T0E0C 001:264 JLINK_IsHalted()  returns FALSE (0000ms, 0629ms total)
T0E0C 001:267 JLINK_IsHalted()  returns FALSE (0000ms, 0629ms total)
T0E0C 001:270 JLINK_IsHalted() -- CPU_ReadMem(2 bytes @ 0x20000000)  returns TRUE (0002ms, 0631ms total)
T0E0C 001:272 JLINK_ReadReg(R15 (PC))  returns 0x20000000 (0000ms, 0629ms total)
T0E0C 001:272 JLINK_ClrBPEx(BPHandle = 0x00000007)  returns 0x00 (0000ms, 0629ms total)
T0E0C 001:272 JLINK_ReadReg(R0)  returns 0x00000000 (0000ms, 0629ms total)
T0E0C 001:273 JLINK_WriteMem(0x20000184, 0x0400 Bytes, ...) -- Data:  06 FA 05 F1 49 1E 21 40 99 40 9E 40 76 1E 16 40 ... -- CPU_WriteMem(1024 bytes @ 0x20000184)  returns 0x400 (0009ms, 0638ms total)
T0E0C 001:282 JLINK_WriteReg(R0, 0x08000800)  returns 0x00 (0000ms, 0638ms total)
T0E0C 001:282 JLINK_WriteReg(R1, 0x00000400)  returns 0x00 (0000ms, 0638ms total)
T0E0C 001:282 JLINK_WriteReg(R2, 0x20000184)  returns 0x00 (0000ms, 0638ms total)
T0E0C 001:282 JLINK_WriteReg(R3, 0x00000000)  returns 0x00 (0000ms, 0638ms total)
T0E0C 001:282 JLINK_WriteReg(R4, 0x00000000)  returns 0x00 (0000ms, 0638ms total)
T0E0C 001:282 JLINK_WriteReg(R5, 0x00000000)  returns 0x00 (0000ms, 0638ms total)
T0E0C 001:282 JLINK_WriteReg(R6, 0x00000000)  returns 0x00 (0000ms, 0638ms total)
T0E0C 001:282 JLINK_WriteReg(R7, 0x00000000)  returns 0x00 (0000ms, 0638ms total)
T0E0C 001:282 JLINK_WriteReg(R8, 0x00000000)  returns 0x00 (0000ms, 0638ms total)
T0E0C 001:282 JLINK_WriteReg(R9, 0x20000180)  returns 0x00 (0000ms, 0638ms total)
T0E0C 001:282 JLINK_WriteReg(R10, 0x00000000)  returns 0x00 (0000ms, 0638ms total)
T0E0C 001:282 JLINK_WriteReg(R11, 0x00000000)  returns 0x00 (0000ms, 0638ms total)
T0E0C 001:282 JLINK_WriteReg(R12, 0x00000000)  returns 0x00 (0000ms, 0638ms total)
T0E0C 001:282 JLINK_WriteReg(R13 (SP), 0x20001000)  returns 0x00 (0000ms, 0638ms total)
T0E0C 001:282 JLINK_WriteReg(R14, 0x20000001)  returns 0x00 (0000ms, 0638ms total)
T0E0C 001:282 JLINK_WriteReg(R15 (PC), 0x2000010C)  returns 0x00 (0000ms, 0638ms total)
T0E0C 001:282 JLINK_WriteReg(XPSR, 0x01000000)  returns 0x00 (0000ms, 0638ms total)
T0E0C 001:282 JLINK_WriteReg(MSP, 0x20001000)  returns 0x00 (0000ms, 0638ms total)
T0E0C 001:282 JLINK_WriteReg(PSP, 0x20001000)  returns 0x00 (0000ms, 0638ms total)
T0E0C 001:282 JLINK_WriteReg(CFBP, 0x00000000)  returns 0x00 (0001ms, 0639ms total)
T0E0C 001:283 JLINK_SetBPEx(Addr = 0x20000000, Type = 0xFFFFFFF2)  returns 0x00000008 (0000ms, 0639ms total)
T0E0C 001:283 JLINK_Go() (0001ms, 0640ms total)
T0E0C 001:284 JLINK_IsHalted()  returns FALSE (0001ms, 0641ms total)
T0E0C 001:287 JLINK_IsHalted() -- CPU_ReadMem(2 bytes @ 0x20000000)  returns TRUE (0009ms, 0649ms total)
T0E0C 001:296 JLINK_ReadReg(R15 (PC))  returns 0x20000000 (0000ms, 0640ms total)
T0E0C 001:296 JLINK_ClrBPEx(BPHandle = 0x00000008)  returns 0x00 (0002ms, 0642ms total)
T0E0C 001:298 JLINK_ReadReg(R0)  returns 0x00000000 (0000ms, 0642ms total)
T0E0C 001:298 JLINK_WriteMem(0x20000184, 0x0400 Bytes, ...) -- Data:  05 28 30 68 10 D0 20 F0 01 00 30 60 30 68 20 F0 ... -- CPU_WriteMem(1024 bytes @ 0x20000184)  returns 0x400 (0009ms, 0651ms total)
T0E0C 001:307 JLINK_WriteReg(R0, 0x08000C00)  returns 0x00 (0000ms, 0651ms total)
T0E0C 001:307 JLINK_WriteReg(R1, 0x00000400)  returns 0x00 (0000ms, 0651ms total)
T0E0C 001:307 JLINK_WriteReg(R2, 0x20000184)  returns 0x00 (0000ms, 0651ms total)
T0E0C 001:307 JLINK_WriteReg(R3, 0x00000000)  returns 0x00 (0000ms, 0651ms total)
T0E0C 001:307 JLINK_WriteReg(R4, 0x00000000)  returns 0x00 (0000ms, 0651ms total)
T0E0C 001:307 JLINK_WriteReg(R5, 0x00000000)  returns 0x00 (0000ms, 0651ms total)
T0E0C 001:307 JLINK_WriteReg(R6, 0x00000000)  returns 0x00 (0000ms, 0651ms total)
T0E0C 001:307 JLINK_WriteReg(R7, 0x00000000)  returns 0x00 (0000ms, 0651ms total)
T0E0C 001:307 JLINK_WriteReg(R8, 0x00000000)  returns 0x00 (0000ms, 0651ms total)
T0E0C 001:307 JLINK_WriteReg(R9, 0x20000180)  returns 0x00 (0000ms, 0651ms total)
T0E0C 001:307 JLINK_WriteReg(R10, 0x00000000)  returns 0x00 (0000ms, 0651ms total)
T0E0C 001:307 JLINK_WriteReg(R11, 0x00000000)  returns 0x00 (0000ms, 0651ms total)
T0E0C 001:307 JLINK_WriteReg(R12, 0x00000000)  returns 0x00 (0000ms, 0651ms total)
T0E0C 001:307 JLINK_WriteReg(R13 (SP), 0x20001000)  returns 0x00 (0000ms, 0651ms total)
T0E0C 001:307 JLINK_WriteReg(R14, 0x20000001)  returns 0x00 (0000ms, 0651ms total)
T0E0C 001:307 JLINK_WriteReg(R15 (PC), 0x2000010C)  returns 0x00 (0000ms, 0651ms total)
T0E0C 001:307 JLINK_WriteReg(XPSR, 0x01000000)  returns 0x00 (0000ms, 0651ms total)
T0E0C 001:307 JLINK_WriteReg(MSP, 0x20001000)  returns 0x00 (0000ms, 0651ms total)
T0E0C 001:307 JLINK_WriteReg(PSP, 0x20001000)  returns 0x00 (0000ms, 0651ms total)
T0E0C 001:307 JLINK_WriteReg(CFBP, 0x00000000)  returns 0x00 (0000ms, 0651ms total)
T0E0C 001:307 JLINK_SetBPEx(Addr = 0x20000000, Type = 0xFFFFFFF2)  returns 0x00000009 (0000ms, 0651ms total)
T0E0C 001:307 JLINK_Go() (0002ms, 0653ms total)
T0E0C 001:309 JLINK_IsHalted()  returns FALSE (0000ms, 0653ms total)
T0E0C 001:318 JLINK_IsHalted() -- CPU_ReadMem(2 bytes @ 0x20000000)  returns TRUE (0002ms, 0655ms total)
T0E0C 001:320 JLINK_ReadReg(R15 (PC))  returns 0x20000000 (0000ms, 0653ms total)
T0E0C 001:320 JLINK_ClrBPEx(BPHandle = 0x00000009)  returns 0x00 (0000ms, 0653ms total)
T0E0C 001:320 JLINK_ReadReg(R0)  returns 0x00000000 (0000ms, 0653ms total)
T0E0C 001:321 JLINK_WriteMem(0x20000184, 0x0400 Bytes, ...) -- Data:  05 90 22 46 29 46 30 46 FF F7 82 FB 01 20 00 95 ... -- CPU_WriteMem(1024 bytes @ 0x20000184)  returns 0x400 (0009ms, 0662ms total)
T0E0C 001:330 JLINK_WriteReg(R0, 0x08001000)  returns 0x00 (0000ms, 0662ms total)
T0E0C 001:330 JLINK_WriteReg(R1, 0x00000400)  returns 0x00 (0000ms, 0662ms total)
T0E0C 001:330 JLINK_WriteReg(R2, 0x20000184)  returns 0x00 (0000ms, 0662ms total)
T0E0C 001:330 JLINK_WriteReg(R3, 0x00000000)  returns 0x00 (0000ms, 0662ms total)
T0E0C 001:330 JLINK_WriteReg(R4, 0x00000000)  returns 0x00 (0000ms, 0662ms total)
T0E0C 001:330 JLINK_WriteReg(R5, 0x00000000)  returns 0x00 (0000ms, 0662ms total)
T0E0C 001:330 JLINK_WriteReg(R6, 0x00000000)  returns 0x00 (0000ms, 0662ms total)
T0E0C 001:330 JLINK_WriteReg(R7, 0x00000000)  returns 0x00 (0000ms, 0662ms total)
T0E0C 001:330 JLINK_WriteReg(R8, 0x00000000)  returns 0x00 (0000ms, 0662ms total)
T0E0C 001:330 JLINK_WriteReg(R9, 0x20000180)  returns 0x00 (0000ms, 0662ms total)
T0E0C 001:330 JLINK_WriteReg(R10, 0x00000000)  returns 0x00 (0000ms, 0662ms total)
T0E0C 001:330 JLINK_WriteReg(R11, 0x00000000)  returns 0x00 (0000ms, 0662ms total)
T0E0C 001:330 JLINK_WriteReg(R12, 0x00000000)  returns 0x00 (0000ms, 0662ms total)
T0E0C 001:330 JLINK_WriteReg(R13 (SP), 0x20001000)  returns 0x00 (0000ms, 0662ms total)
T0E0C 001:330 JLINK_WriteReg(R14, 0x20000001)  returns 0x00 (0000ms, 0662ms total)
T0E0C 001:330 JLINK_WriteReg(R15 (PC), 0x2000010C)  returns 0x00 (0000ms, 0662ms total)
T0E0C 001:330 JLINK_WriteReg(XPSR, 0x01000000)  returns 0x00 (0000ms, 0662ms total)
T0E0C 001:330 JLINK_WriteReg(MSP, 0x20001000)  returns 0x00 (0000ms, 0662ms total)
T0E0C 001:330 JLINK_WriteReg(PSP, 0x20001000)  returns 0x00 (0000ms, 0662ms total)
T0E0C 001:330 JLINK_WriteReg(CFBP, 0x00000000)  returns 0x00 (0000ms, 0662ms total)
T0E0C 001:330 JLINK_SetBPEx(Addr = 0x20000000, Type = 0xFFFFFFF2)  returns 0x0000000A (0000ms, 0662ms total)
T0E0C 001:330 JLINK_Go() (0002ms, 0664ms total)
T0E0C 001:332 JLINK_IsHalted()  returns FALSE (0000ms, 0664ms total)
T0E0C 001:334 JLINK_IsHalted()  returns FALSE (0000ms, 0664ms total)
T0E0C 001:336 JLINK_IsHalted()  returns FALSE (0000ms, 0664ms total)
T0E0C 001:338 JLINK_IsHalted() -- CPU_ReadMem(2 bytes @ 0x20000000)  returns TRUE (0003ms, 0667ms total)
T0E0C 001:342 JLINK_ReadReg(R15 (PC))  returns 0x20000000 (0000ms, 0664ms total)
T0E0C 001:342 JLINK_ClrBPEx(BPHandle = 0x0000000A)  returns 0x00 (0000ms, 0664ms total)
T0E0C 001:342 JLINK_ReadReg(R0)  returns 0x00000000 (0000ms, 0664ms total)
T0E0C 001:343 JLINK_WriteMem(0x20000184, 0x0400 Bytes, ...) -- Data:  00 00 00 00 4F F0 40 70 E1 EE 10 0A 70 47 00 00 ... -- CPU_WriteMem(1024 bytes @ 0x20000184)  returns 0x400 (0007ms, 0671ms total)
T0E0C 001:350 JLINK_WriteReg(R0, 0x08001400)  returns 0x00 (0000ms, 0671ms total)
T0E0C 001:350 JLINK_WriteReg(R1, 0x00000058)  returns 0x00 (0000ms, 0671ms total)
T0E0C 001:350 JLINK_WriteReg(R2, 0x20000184)  returns 0x00 (0000ms, 0671ms total)
T0E0C 001:350 JLINK_WriteReg(R3, 0x00000000)  returns 0x00 (0000ms, 0671ms total)
T0E0C 001:350 JLINK_WriteReg(R4, 0x00000000)  returns 0x00 (0000ms, 0671ms total)
T0E0C 001:350 JLINK_WriteReg(R5, 0x00000000)  returns 0x00 (0000ms, 0671ms total)
T0E0C 001:350 JLINK_WriteReg(R6, 0x00000000)  returns 0x00 (0000ms, 0671ms total)
T0E0C 001:350 JLINK_WriteReg(R7, 0x00000000)  returns 0x00 (0000ms, 0671ms total)
T0E0C 001:350 JLINK_WriteReg(R8, 0x00000000)  returns 0x00 (0000ms, 0671ms total)
T0E0C 001:350 JLINK_WriteReg(R9, 0x20000180)  returns 0x00 (0000ms, 0671ms total)
T0E0C 001:350 JLINK_WriteReg(R10, 0x00000000)  returns 0x00 (0000ms, 0671ms total)
T0E0C 001:350 JLINK_WriteReg(R11, 0x00000000)  returns 0x00 (0000ms, 0671ms total)
T0E0C 001:350 JLINK_WriteReg(R12, 0x00000000)  returns 0x00 (0000ms, 0671ms total)
T0E0C 001:350 JLINK_WriteReg(R13 (SP), 0x20001000)  returns 0x00 (0000ms, 0671ms total)
T0E0C 001:350 JLINK_WriteReg(R14, 0x20000001)  returns 0x00 (0000ms, 0671ms total)
T0E0C 001:350 JLINK_WriteReg(R15 (PC), 0x2000010C)  returns 0x00 (0000ms, 0671ms total)
T0E0C 001:350 JLINK_WriteReg(XPSR, 0x01000000)  returns 0x00 (0000ms, 0671ms total)
T0E0C 001:350 JLINK_WriteReg(MSP, 0x20001000)  returns 0x00 (0000ms, 0671ms total)
T0E0C 001:350 JLINK_WriteReg(PSP, 0x20001000)  returns 0x00 (0000ms, 0671ms total)
T0E0C 001:350 JLINK_WriteReg(CFBP, 0x00000000)  returns 0x00 (0001ms, 0672ms total)
T0E0C 001:351 JLINK_SetBPEx(Addr = 0x20000000, Type = 0xFFFFFFF2)  returns 0x0000000B (0000ms, 0672ms total)
T0E0C 001:351 JLINK_Go() (0001ms, 0673ms total)
T0E0C 001:352 JLINK_IsHalted() -- CPU_ReadMem(2 bytes @ 0x20000000)  returns TRUE (0004ms, 0677ms total)
T0E0C 001:356 JLINK_ReadReg(R15 (PC))  returns 0x20000000 (0000ms, 0673ms total)
T0E0C 001:356 JLINK_ClrBPEx(BPHandle = 0x0000000B)  returns 0x00 (0000ms, 0673ms total)
T0E0C 001:356 JLINK_ReadReg(R0)  returns 0x00000000 (0000ms, 0673ms total)
T0E0C 001:356 JLINK_WriteReg(R0, 0x00000002)  returns 0x00 (0000ms, 0673ms total)
T0E0C 001:356 JLINK_WriteReg(R1, 0x00000058)  returns 0x00 (0000ms, 0673ms total)
T0E0C 001:356 JLINK_WriteReg(R2, 0x20000184)  returns 0x00 (0000ms, 0673ms total)
T0E0C 001:356 JLINK_WriteReg(R3, 0x00000000)  returns 0x00 (0000ms, 0673ms total)
T0E0C 001:356 JLINK_WriteReg(R4, 0x00000000)  returns 0x00 (0000ms, 0673ms total)
T0E0C 001:356 JLINK_WriteReg(R5, 0x00000000)  returns 0x00 (0000ms, 0673ms total)
T0E0C 001:356 JLINK_WriteReg(R6, 0x00000000)  returns 0x00 (0000ms, 0673ms total)
T0E0C 001:356 JLINK_WriteReg(R7, 0x00000000)  returns 0x00 (0000ms, 0673ms total)
T0E0C 001:356 JLINK_WriteReg(R8, 0x00000000)  returns 0x00 (0000ms, 0673ms total)
T0E0C 001:356 JLINK_WriteReg(R9, 0x20000180)  returns 0x00 (0000ms, 0673ms total)
T0E0C 001:356 JLINK_WriteReg(R10, 0x00000000)  returns 0x00 (0000ms, 0673ms total)
T0E0C 001:356 JLINK_WriteReg(R11, 0x00000000)  returns 0x00 (0000ms, 0673ms total)
T0E0C 001:356 JLINK_WriteReg(R12, 0x00000000)  returns 0x00 (0000ms, 0673ms total)
T0E0C 001:356 JLINK_WriteReg(R13 (SP), 0x20001000)  returns 0x00 (0000ms, 0673ms total)
T0E0C 001:356 JLINK_WriteReg(R14, 0x20000001)  returns 0x00 (0000ms, 0673ms total)
T0E0C 001:356 JLINK_WriteReg(R15 (PC), 0x20000086)  returns 0x00 (0000ms, 0673ms total)
T0E0C 001:356 JLINK_WriteReg(XPSR, 0x01000000)  returns 0x00 (0000ms, 0673ms total)
T0E0C 001:356 JLINK_WriteReg(MSP, 0x20001000)  returns 0x00 (0000ms, 0673ms total)
T0E0C 001:356 JLINK_WriteReg(PSP, 0x20001000)  returns 0x00 (0000ms, 0673ms total)
T0E0C 001:356 JLINK_WriteReg(CFBP, 0x00000000)  returns 0x00 (0000ms, 0673ms total)
T0E0C 001:356 JLINK_SetBPEx(Addr = 0x20000000, Type = 0xFFFFFFF2)  returns 0x0000000C (0000ms, 0673ms total)
T0E0C 001:356 JLINK_Go() (0002ms, 0675ms total)
T0E0C 001:358 JLINK_IsHalted() -- CPU_ReadMem(2 bytes @ 0x20000000)  returns TRUE (0003ms, 0678ms total)
T0E0C 001:361 JLINK_ReadReg(R15 (PC))  returns 0x20000000 (0000ms, 0675ms total)
T0E0C 001:361 JLINK_ClrBPEx(BPHandle = 0x0000000C)  returns 0x00 (0000ms, 0675ms total)
T0E0C 001:361 JLINK_ReadReg(R0)  returns 0x00000000 (0000ms, 0675ms total)
T0E0C 001:425 JLINK_WriteMem(0x20000000, 0x0184 Bytes, ...) -- Data:  00 BE 0A E0 0D 78 2D 06 68 40 08 24 40 00 00 D3 ... -- CPU_WriteMem(388 bytes @ 0x20000000)  returns 0x184 (0003ms, 0678ms total)
T0E0C 001:429 JLINK_WriteReg(R0, 0x08000000)  returns 0x00 (0000ms, 0679ms total)
T0E0C 001:429 JLINK_WriteReg(R1, 0x017D7840)  returns 0x00 (0000ms, 0679ms total)
T0E0C 001:429 JLINK_WriteReg(R2, 0x00000003)  returns 0x00 (0000ms, 0679ms total)
T0E0C 001:429 JLINK_WriteReg(R3, 0x00000000)  returns 0x00 (0000ms, 0679ms total)
T0E0C 001:429 JLINK_WriteReg(R4, 0x00000000)  returns 0x00 (0000ms, 0679ms total)
T0E0C 001:429 JLINK_WriteReg(R5, 0x00000000)  returns 0x00 (0000ms, 0679ms total)
T0E0C 001:429 JLINK_WriteReg(R6, 0x00000000)  returns 0x00 (0000ms, 0679ms total)
T0E0C 001:429 JLINK_WriteReg(R7, 0x00000000)  returns 0x00 (0000ms, 0679ms total)
T0E0C 001:429 JLINK_WriteReg(R8, 0x00000000)  returns 0x00 (0000ms, 0679ms total)
T0E0C 001:429 JLINK_WriteReg(R9, 0x20000180)  returns 0x00 (0000ms, 0679ms total)
T0E0C 001:429 JLINK_WriteReg(R10, 0x00000000)  returns 0x00 (0000ms, 0679ms total)
T0E0C 001:429 JLINK_WriteReg(R11, 0x00000000)  returns 0x00 (0000ms, 0679ms total)
T0E0C 001:429 JLINK_WriteReg(R12, 0x00000000)  returns 0x00 (0000ms, 0679ms total)
T0E0C 001:429 JLINK_WriteReg(R13 (SP), 0x20001000)  returns 0x00 (0000ms, 0679ms total)
T0E0C 001:429 JLINK_WriteReg(R14, 0x20000001)  returns 0x00 (0000ms, 0679ms total)
T0E0C 001:429 JLINK_WriteReg(R15 (PC), 0x20000054)  returns 0x00 (0000ms, 0679ms total)
T0E0C 001:429 JLINK_WriteReg(XPSR, 0x01000000)  returns 0x00 (0000ms, 0679ms total)
T0E0C 001:429 JLINK_WriteReg(MSP, 0x20001000)  returns 0x00 (0000ms, 0679ms total)
T0E0C 001:429 JLINK_WriteReg(PSP, 0x20001000)  returns 0x00 (0000ms, 0679ms total)
T0E0C 001:429 JLINK_WriteReg(CFBP, 0x00000000)  returns 0x00 (0000ms, 0679ms total)
T0E0C 001:429 JLINK_SetBPEx(Addr = 0x20000000, Type = 0xFFFFFFF2) -- CPU_ReadMem(4 bytes @ 0x20000000) -- CPU_WriteMem(4 bytes @ 0x20000000) -- CPU_ReadMem(4 bytes @ 0x20000000) -- CPU_WriteMem(4 bytes @ 0x20000000) -- CPU_ReadMem(2 bytes @ 0x20000000)  returns 0x0000000D (0002ms, 0681ms total)
T0E0C 001:431 JLINK_Go() -- CPU_WriteMem(2 bytes @ 0x20000000) (0002ms, 0683ms total)
T0E0C 001:433 JLINK_IsHalted() -- CPU_ReadMem(2 bytes @ 0x20000000)  returns TRUE (0003ms, 0686ms total)
T0E0C 001:436 JLINK_ReadReg(R15 (PC))  returns 0x20000000 (0000ms, 0683ms total)
T0E0C 001:437 JLINK_ClrBPEx(BPHandle = 0x0000000D)  returns 0x00 (0000ms, 0684ms total)
T0E0C 001:437 JLINK_ReadReg(R0)  returns 0x00000000 (0000ms, 0684ms total)
T0E0C 001:437 JLINK_WriteReg(R0, 0xFFFFFFFF)  returns 0x00 (0000ms, 0684ms total)
T0E0C 001:437 JLINK_WriteReg(R1, 0x08000000)  returns 0x00 (0000ms, 0684ms total)
T0E0C 001:437 JLINK_WriteReg(R2, 0x00001458)  returns 0x00 (0000ms, 0684ms total)
T0E0C 001:437 JLINK_WriteReg(R3, 0x04C11DB7)  returns 0x00 (0000ms, 0684ms total)
T0E0C 001:437 JLINK_WriteReg(R4, 0x00000000)  returns 0x00 (0000ms, 0684ms total)
T0E0C 001:437 JLINK_WriteReg(R5, 0x00000000)  returns 0x00 (0000ms, 0684ms total)
T0E0C 001:437 JLINK_WriteReg(R6, 0x00000000)  returns 0x00 (0000ms, 0684ms total)
T0E0C 001:437 JLINK_WriteReg(R7, 0x00000000)  returns 0x00 (0000ms, 0684ms total)
T0E0C 001:437 JLINK_WriteReg(R8, 0x00000000)  returns 0x00 (0000ms, 0684ms total)
T0E0C 001:437 JLINK_WriteReg(R9, 0x20000180)  returns 0x00 (0000ms, 0684ms total)
T0E0C 001:437 JLINK_WriteReg(R10, 0x00000000)  returns 0x00 (0000ms, 0684ms total)
T0E0C 001:437 JLINK_WriteReg(R11, 0x00000000)  returns 0x00 (0000ms, 0684ms total)
T0E0C 001:437 JLINK_WriteReg(R12, 0x00000000)  returns 0x00 (0000ms, 0684ms total)
T0E0C 001:437 JLINK_WriteReg(R13 (SP), 0x20001000)  returns 0x00 (0000ms, 0684ms total)
T0E0C 001:437 JLINK_WriteReg(R14, 0x20000001)  returns 0x00 (0000ms, 0684ms total)
T0E0C 001:437 JLINK_WriteReg(R15 (PC), 0x20000002)  returns 0x00 (0000ms, 0684ms total)
T0E0C 001:437 JLINK_WriteReg(XPSR, 0x01000000)  returns 0x00 (0000ms, 0684ms total)
T0E0C 001:437 JLINK_WriteReg(MSP, 0x20001000)  returns 0x00 (0000ms, 0684ms total)
T0E0C 001:437 JLINK_WriteReg(PSP, 0x20001000)  returns 0x00 (0000ms, 0684ms total)
T0E0C 001:437 JLINK_WriteReg(CFBP, 0x00000000)  returns 0x00 (0000ms, 0684ms total)
T0E0C 001:437 JLINK_SetBPEx(Addr = 0x20000000, Type = 0xFFFFFFF2)  returns 0x0000000E (0000ms, 0684ms total)
T0E0C 001:437 JLINK_Go() (0001ms, 0685ms total)
T0E0C 001:438 JLINK_IsHalted()  returns FALSE (0002ms, 0687ms total)
T0E0C 001:448 JLINK_IsHalted()  returns FALSE (0000ms, 0685ms total)
T0E0C 001:450 JLINK_IsHalted()  returns FALSE (0000ms, 0685ms total)
T0E0C 001:452 JLINK_IsHalted()  returns FALSE (0000ms, 0685ms total)
T0E0C 001:454 JLINK_IsHalted()  returns FALSE (0000ms, 0685ms total)
T0E0C 001:457 JLINK_IsHalted()  returns FALSE (0000ms, 0685ms total)
T0E0C 001:459 JLINK_IsHalted()  returns FALSE (0000ms, 0685ms total)
T0E0C 001:461 JLINK_IsHalted()  returns FALSE (0000ms, 0685ms total)
T0E0C 001:463 JLINK_IsHalted()  returns FALSE (0000ms, 0685ms total)
T0E0C 001:465 JLINK_IsHalted()  returns FALSE (0000ms, 0685ms total)
T0E0C 001:466 JLINK_IsHalted()  returns FALSE (0000ms, 0685ms total)
T0E0C 001:468 JLINK_IsHalted()  returns FALSE (0000ms, 0685ms total)
T0E0C 001:470 JLINK_IsHalted()  returns FALSE (0000ms, 0685ms total)
T0E0C 001:473 JLINK_IsHalted() -- CPU_ReadMem(2 bytes @ 0x20000000)  returns TRUE (0002ms, 0687ms total)
T0E0C 001:475 JLINK_ReadReg(R15 (PC))  returns 0x20000000 (0000ms, 0685ms total)
T0E0C 001:475 JLINK_ClrBPEx(BPHandle = 0x0000000E)  returns 0x00 (0000ms, 0685ms total)
T0E0C 001:475 JLINK_ReadReg(R0)  returns 0x91D98493 (0000ms, 0685ms total)
T0E0C 001:476 JLINK_WriteReg(R0, 0x00000003)  returns 0x00 (0000ms, 0685ms total)
T0E0C 001:476 JLINK_WriteReg(R1, 0x08000000)  returns 0x00 (0000ms, 0685ms total)
